
T0A88 000:333 SEGGER J-Link V5.10h Log File (0001ms, 0299ms total)
T0A88 000:333 DLL Compiled: Jan 21 2016 19:24:29 (0001ms, 0299ms total)
T0A88 000:333 Logging started @ 2019-07-22 22:22 (0001ms, 0299ms total)
T0A88 000:334 JLINK_SetWarnOutHandler(...) (0000ms, 0299ms total)
T0A88 000:334 JLINK_OpenEx(...)
Firmware: J-Link V9 compiled Oct 25 2018 11:46:07
Hardware: V9.60
S/N: 63631261
Feature(s): RDI, GDB, FlashDL, FlashBP, JFlash  returns O.K. (0294ms, 0593ms total)
T0A88 000:628 JLINK_SetErrorOutHandler(...) (0000ms, 0593ms total)
T0A88 000:628 JLINK_ExecCommand("ProjectFile = "D:\3-motor\19.7.22 MOTOR - Epos4-50-15\USER\JLinkSettings.ini"", ...)  returns 0x00 (0001ms, 0594ms total)
T0A88 000:632 JLINK_ExecCommand("Device = STM32F103ZE", ...)Device "STM32F103ZE" selected.  returns 0x00 (0007ms, 0601ms total)
T0A88 000:639 JLINK_ExecCommand("DisableConnectionTimeout", ...)  returns 0x01 (0000ms, 0601ms total)
T0A88 000:639 JLINK_GetHardwareVersion()  returns 0x17700 (0000ms, 0601ms total)
T0A88 000:639 JLINK_GetDLLVersion()  returns 51008 (0000ms, 0601ms total)
T0A88 000:639 JLINK_GetFirmwareString(...) (0000ms, 0601ms total)
T0A88 000:660 JLINK_GetDLLVersion()  returns 51008 (0000ms, 0601ms total)
T0A88 000:660 JLINK_GetCompileDateTime() (0000ms, 0601ms total)
T0A88 000:663 JLINK_GetFirmwareString(...) (0000ms, 0601ms total)
T0A88 000:667 JLINK_GetHardwareVersion()  returns 0x17700 (0000ms, 0601ms total)
T0A88 000:680 JLINK_TIF_Select(JLINKARM_TIF_JTAG)  returns 0x00 (0003ms, 0604ms total)
T0A88 000:683 JLINK_SetSpeed(5000) (0000ms, 0604ms total)
T0A88 000:683 JLINK_GetIdData(...) >0x2F8 JTAG>TotalIRLen = 9, IRPrint = 0x0011 >0x30 JTAG> >0x210 JTAG> >0x40 JTAG> >0x40 JTAG> >0x40 JTAG> >0x30 JTAG> >0x40 JTAG> >0x40 JTAG> >0x40 JTAG> >0x40 JTAG> >0x40 JTAG> >0x40 JTAG> >0x40 JTAG> >0x40 JTAG> >0x40 JTAG> >0x40 JTAG> >0x40 JTAG> >0x40 JTAG> >0x40 JTAG> >0x40 JTAG> >0x2F8 JTAG>TotalIRLen = 9, IRPrint = 0x0011 >0x30 JTAG> >0x210 JTAG> >0x70 JTAG> >0x50 JTAG> >0x40 JTAG> >0x50 JTAG> >0x80 JTAG> >0x40 JTAG> >0x30 JTAG> >0x40 JTAG> >0x40 JTAG>
 >0x30 JTAG> >0x40 JTAG> >0x50 JTAG>Found Cortex-M3 r1p1, Little endian. -- CPU_ReadMem(4 bytes @ 0xE000EDF0) -- CPU_ReadMem(4 bytes @ 0xE0002000)FPUnit: 6 code (BP) slots and 2 literal slots -- CPU_ReadMem(4 bytes @ 0xE000EDFC) -- CPU_ReadMem(4 bytes @ 0xE0001000) -- CPU_WriteMem(4 bytes @ 0xE0001000) -- CPU_ReadMem(4 bytes @ 0xE000ED88) -- CPU_WriteMem(4 bytes @ 0xE000ED88) -- CPU_ReadMem(4 bytes @ 0xE000ED88) -- CPU_WriteMem(4 bytes @ 0xE000ED88)CoreSight components:ROMTbl 0 @ E00FF000
 -- CPU_ReadMem(16 bytes @ 0xE00FF000) -- CPU_ReadMem(16 bytes @ 0xE000EFF0) -- CPU_ReadMem(16 bytes @ 0xE000EFE0)ROMTbl 0 [0]: FFF0F000, CID: B105E00D, PID: 001BB000 SCS -- CPU_ReadMem(16 bytes @ 0xE0001FF0) -- CPU_ReadMem(16 bytes @ 0xE0001FE0)ROMTbl 0 [1]: FFF02000, CID: B105E00D, PID: 001BB002 DWT -- CPU_ReadMem(16 bytes @ 0xE0002FF0) -- CPU_ReadMem(16 bytes @ 0xE0002FE0)ROMTbl 0 [2]: FFF03000, CID: B105E00D, PID: 000BB003 FPB -- CPU_ReadMem(16 bytes @ 0xE0000FF0)
 -- CPU_ReadMem(16 bytes @ 0xE0000FE0)ROMTbl 0 [3]: FFF01000, CID: B105E00D, PID: 001BB001 ITM -- CPU_ReadMem(16 bytes @ 0xE00FF010) -- CPU_ReadMem(16 bytes @ 0xE0040FF0) -- CPU_ReadMem(16 bytes @ 0xE0040FE0)ROMTbl 0 [4]: FFF41000, CID: B105900D, PID: 001BB923 TPIU-Lite -- CPU_ReadMem(16 bytes @ 0xE0041FF0) -- CPU_ReadMem(16 bytes @ 0xE0041FE0)ROMTbl 0 [5]: FFF42000, CID: B105900D, PID: 101BB924 ETM-M3 ScanLen=9 NumDevices=2 aId[0]=0x3BA00477 aIrRead[0]=0 aScanLen[0]=0 aScanRead[0]=0
 (0083ms, 0687ms total)
T0A88 000:766 JLINK_JTAG_GetDeviceID(DeviceIndex = 0)  returns 0x3BA00477 (0000ms, 0687ms total)
T0A88 000:766 JLINK_JTAG_GetDeviceInfo(DeviceIndex = 0)  returns 0x00 (0000ms, 0687ms total)
T0A88 000:766 JLINK_JTAG_GetDeviceID(DeviceIndex = 1)  returns 0x6414041 (0000ms, 0687ms total)
T0A88 000:766 JLINK_JTAG_GetDeviceInfo(DeviceIndex = 1)  returns 0x00 (0000ms, 0687ms total)
T0A88 000:766 JLINK_GetDLLVersion()  returns 51008 (0001ms, 0688ms total)
T0A88 000:767 JLINK_CORE_GetFound()  returns 0x30000FF (0000ms, 0688ms total)
T0A88 000:767 JLINK_GetDebugInfo(0x100) -- Value=0xE00FF003  returns 0x00 (0000ms, 0688ms total)
T0A88 000:771 JLINK_GetDebugInfo(0x100) -- Value=0xE00FF003  returns 0x00 (0000ms, 0688ms total)
T0A88 000:771 JLINK_GetDebugInfo(0x101) -- Value=0xE0041000  returns 0x00 (0000ms, 0688ms total)
T0A88 000:771 JLINK_GetDebugInfo(0x102) -- Value=0x00000000  returns 0x00 (0000ms, 0688ms total)
T0A88 000:771 JLINK_GetDebugInfo(0x103) -- Value=0xE0040000  returns 0x00 (0000ms, 0688ms total)
T0A88 000:771 JLINK_GetDebugInfo(0x104) -- Value=0xE0000000  returns 0x00 (0001ms, 0689ms total)
T0A88 000:772 JLINK_GetDebugInfo(0x105) -- Value=0xE0001000  returns 0x00 (0000ms, 0689ms total)
T0A88 000:772 JLINK_GetDebugInfo(0x106) -- Value=0xE0002000  returns 0x00 (0000ms, 0689ms total)
T0A88 000:772 JLINK_GetDebugInfo(0x107) -- Value=0xE000E000  returns 0x00 (0000ms, 0689ms total)
T0A88 000:772 JLINK_GetDebugInfo(0x10C) -- Value=0xE000EDF0  returns 0x00 (0000ms, 0689ms total)
T0A88 000:772 JLINK_ReadMemU32(0xE000ED00, 0x0001 Items, ...) -- CPU is running -- CPU_ReadMem(4 bytes @ 0xE000ED00) - Data: 31 C2 1F 41  returns 0x01 (0000ms, 0689ms total)
T0A88 000:772 JLINK_SetResetType(JLINKARM_RESET_TYPE_NORMAL)  returns JLINKARM_RESET_TYPE_NORMAL (0000ms, 0689ms total)
T0A88 000:772 JLINK_Reset() -- CPU is running -- CPU_WriteMem(4 bytes @ 0xE000EDF0) -- CPU is running -- CPU_WriteMem(4 bytes @ 0xE000EDFC) -- CPU is running -- CPU_WriteMem(4 bytes @ 0xE000ED0C) -- CPU is running -- CPU_ReadMem(4 bytes @ 0xE000EDF0) -- CPU is running -- CPU_ReadMem(4 bytes @ 0xE000EDF0) -- CPU is running -- CPU_WriteMem(4 bytes @ 0xE000EDF0) -- CPU is running -- CPU_WriteMem(4 bytes @ 0xE000EDFC) -- CPU is running -- CPU_ReadMem(4 bytes @ 0xE000EDF0) >0x80 JTAG> >0x40 JTAG> >0x30 JTAG>
 >0x40 JTAG> >0x50 JTAG> >0x40 JTAG> -- CPU_WriteMem(4 bytes @ 0xE000EDFC) -- CPU_WriteMem(4 bytes @ 0xE0001028) -- CPU_WriteMem(4 bytes @ 0xE0001038) -- CPU_WriteMem(4 bytes @ 0xE0001048) -- CPU_WriteMem(4 bytes @ 0xE0001058) -- CPU_WriteMem(4 bytes @ 0xE0002000) -- CPU_ReadMem(4 bytes @ 0xE000EDFC) -- CPU_ReadMem(4 bytes @ 0xE0001000) (0029ms, 0718ms total)
T0A88 000:801 JLINK_Halt()  returns 0x00 (0000ms, 0718ms total)
T0A88 000:801 JLINK_IsHalted()  returns TRUE (0000ms, 0718ms total)
T0A88 000:801 JLINK_ReadMemU32(0xE000EDF0, 0x0001 Items, ...) -- CPU_ReadMem(4 bytes @ 0xE000EDF0) - Data: 03 00 03 00  returns 0x01 (0001ms, 0719ms total)
T0A88 000:802 JLINK_WriteU32(0xE000EDF0, 0xA05F0003) -- CPU_WriteMem(4 bytes @ 0xE000EDF0)  returns 0x00 (0001ms, 0720ms total)
T0A88 000:803 JLINK_WriteU32(0xE000EDFC, 0x01000000) -- CPU_WriteMem(4 bytes @ 0xE000EDFC)  returns 0x00 (0000ms, 0720ms total)
T0A88 000:817 JLINK_GetHWStatus(...)  returns 0x00 (0000ms, 0720ms total)
T0A88 000:827 JLINK_GetNumBPUnits(Type = 0xFFFFFF00)  returns 0x06 (0000ms, 0720ms total)
T0A88 000:827 JLINK_GetNumBPUnits(Type = 0xF0)  returns 0x2000 (0000ms, 0720ms total)
T0A88 000:827 JLINK_GetNumWPUnits()  returns 0x04 (0000ms, 0720ms total)
T0A88 000:838 JLINK_GetSpeed()  returns 0x1388 (0000ms, 0720ms total)
T0A88 000:843 JLINK_ReadMemU32(0xE000E004, 0x0001 Items, ...) -- CPU_ReadMem(4 bytes @ 0xE000E004) - Data: 01 00 00 00  returns 0x01 (0001ms, 0721ms total)
T0A88 000:844 JLINK_ReadMemU32(0xE000E004, 0x0001 Items, ...) -- CPU_ReadMem(4 bytes @ 0xE000E004) - Data: 01 00 00 00  returns 0x01 (0001ms, 0722ms total)
T0A88 000:845 JLINK_WriteMem(0xE0001000, 0x001C Bytes, ...) - Data: 01 00 00 00 00 00 00 00 00 00 00 00 00 00 00 00 ... -- CPU_WriteMem(28 bytes @ 0xE0001000)  returns 0x1C (0001ms, 0723ms total)
T0A88 000:846 JLINK_ReadMem (0xE0001000, 0x001C Bytes, ...) -- CPU_ReadMem(28 bytes @ 0xE0001000) - Data: 01 00 00 40 00 00 00 00 00 00 00 00 00 00 00 00 ...  returns 0x00 (0001ms, 0724ms total)
T0A88 000:847 JLINK_Halt()  returns 0x00 (0000ms, 0724ms total)
T0A88 000:847 JLINK_IsHalted()  returns TRUE (0000ms, 0724ms total)
T0A88 000:851 JLINK_WriteMem(0x20000000, 0x0164 Bytes, ...) - Data: 00 BE 0A E0 0D 78 2D 06 68 40 08 24 40 00 00 D3 ... -- CPU_WriteMem(356 bytes @ 0x20000000)  returns 0x164 (0003ms, 0727ms total)
T0A88 000:854 JLINK_WriteReg(R0, 0x08000000)  returns 0x00 (0000ms, 0727ms total)
T0A88 000:854 JLINK_WriteReg(R1, 0x00B71B00)  returns 0x00 (0000ms, 0727ms total)
T0A88 000:854 JLINK_WriteReg(R2, 0x00000001)  returns 0x00 (0000ms, 0727ms total)
T0A88 000:854 JLINK_WriteReg(R3, 0x00000000)  returns 0x00 (0000ms, 0727ms total)
T0A88 000:854 JLINK_WriteReg(R4, 0x00000000)  returns 0x00 (0000ms, 0727ms total)
T0A88 000:854 JLINK_WriteReg(R5, 0x00000000)  returns 0x00 (0000ms, 0727ms total)
T0A88 000:854 JLINK_WriteReg(R6, 0x00000000)  returns 0x00 (0000ms, 0727ms total)
T0A88 000:854 JLINK_WriteReg(R7, 0x00000000)  returns 0x00 (0000ms, 0727ms total)
T0A88 000:854 JLINK_WriteReg(R8, 0x00000000)  returns 0x00 (0000ms, 0727ms total)
T0A88 000:854 JLINK_WriteReg(R9, 0x20000160)  returns 0x00 (0000ms, 0727ms total)
T0A88 000:854 JLINK_WriteReg(R10, 0x00000000)  returns 0x00 (0000ms, 0727ms total)
T0A88 000:854 JLINK_WriteReg(R11, 0x00000000)  returns 0x00 (0000ms, 0727ms total)
T0A88 000:854 JLINK_WriteReg(R12, 0x00000000)  returns 0x00 (0000ms, 0727ms total)
T0A88 000:854 JLINK_WriteReg(R13 (SP), 0x20000800)  returns 0x00 (0000ms, 0727ms total)
T0A88 000:854 JLINK_WriteReg(R14, 0x20000001)  returns 0x00 (0001ms, 0728ms total)
T0A88 000:855 JLINK_WriteReg(R15 (PC), 0x20000038)  returns 0x00 (0000ms, 0728ms total)
T0A88 000:855 JLINK_WriteReg(XPSR, 0x01000000)  returns 0x00 (0000ms, 0728ms total)
T0A88 000:855 JLINK_WriteReg(MSP, 0x20000800)  returns 0x00 (0000ms, 0728ms total)
T0A88 000:855 JLINK_WriteReg(PSP, 0x20000800)  returns 0x00 (0000ms, 0728ms total)
T0A88 000:855 JLINK_WriteReg(CFBP, 0x00000000)  returns 0x00 (0000ms, 0728ms total)
T0A88 000:855 JLINK_SetBPEx(Addr = 0x20000000, Type = 0xFFFFFFF2) -- CPU_ReadMem(2 bytes @ 0x20000000)  returns 0x00000001 (0000ms, 0728ms total)
T0A88 000:855 JLINK_Go() -- CPU_WriteMem(2 bytes @ 0x20000000) -- CPU_ReadMem(4 bytes @ 0xE0001000) -- CPU_WriteMem(4 bytes @ 0xE0002008) -- CPU_WriteMem(4 bytes @ 0xE000200C) -- CPU_WriteMem(4 bytes @ 0xE0002010) -- CPU_WriteMem(4 bytes @ 0xE0002014) -- CPU_WriteMem(4 bytes @ 0xE0002018) -- CPU_WriteMem(4 bytes @ 0xE000201C) -- CPU_WriteMem(4 bytes @ 0xE0001004) (0006ms, 0734ms total)
T0A88 000:861 JLINK_IsHalted() -- CPU_ReadMem(2 bytes @ 0x20000000)  returns TRUE (0004ms, 0738ms total)
T0A88 000:865 JLINK_ReadReg(R15 (PC))  returns 0x20000000 (0000ms, 0734ms total)
T0A88 000:865 JLINK_ClrBPEx(BPHandle = 0x00000001)  returns 0x00 (0000ms, 0734ms total)
T0A88 000:865 JLINK_ReadReg(R0)  returns 0x00000000 (0000ms, 0734ms total)
T0A88 000:865 JLINK_WriteReg(R0, 0x08000000)  returns 0x00 (0000ms, 0734ms total)
T0A88 000:865 JLINK_WriteReg(R1, 0x00B71B00)  returns 0x00 (0000ms, 0734ms total)
T0A88 000:865 JLINK_WriteReg(R2, 0x00000001)  returns 0x00 (0000ms, 0734ms total)
T0A88 000:865 JLINK_WriteReg(R3, 0x00000000)  returns 0x00 (0000ms, 0734ms total)
T0A88 000:865 JLINK_WriteReg(R4, 0x00000000)  returns 0x00 (0000ms, 0734ms total)
T0A88 000:865 JLINK_WriteReg(R5, 0x00000000)  returns 0x00 (0000ms, 0734ms total)
T0A88 000:865 JLINK_WriteReg(R6, 0x00000000)  returns 0x00 (0000ms, 0734ms total)
T0A88 000:865 JLINK_WriteReg(R7, 0x00000000)  returns 0x00 (0000ms, 0734ms total)
T0A88 000:866 JLINK_WriteReg(R8, 0x00000000)  returns 0x00 (0000ms, 0735ms total)
T0A88 000:866 JLINK_WriteReg(R9, 0x20000160)  returns 0x00 (0000ms, 0735ms total)
T0A88 000:866 JLINK_WriteReg(R10, 0x00000000)  returns 0x00 (0000ms, 0735ms total)
T0A88 000:866 JLINK_WriteReg(R11, 0x00000000)  returns 0x00 (0000ms, 0735ms total)
T0A88 000:866 JLINK_WriteReg(R12, 0x00000000)  returns 0x00 (0000ms, 0735ms total)
T0A88 000:866 JLINK_WriteReg(R13 (SP), 0x20000800)  returns 0x00 (0000ms, 0735ms total)
T0A88 000:866 JLINK_WriteReg(R14, 0x20000001)  returns 0x00 (0000ms, 0735ms total)
T0A88 000:866 JLINK_WriteReg(R15 (PC), 0x2000007C)  returns 0x00 (0000ms, 0735ms total)
T0A88 000:866 JLINK_WriteReg(XPSR, 0x01000000)  returns 0x00 (0000ms, 0735ms total)
T0A88 000:866 JLINK_WriteReg(MSP, 0x20000800)  returns 0x00 (0000ms, 0735ms total)
T0A88 000:866 JLINK_WriteReg(PSP, 0x20000800)  returns 0x00 (0000ms, 0735ms total)
T0A88 000:866 JLINK_WriteReg(CFBP, 0x00000000)  returns 0x00 (0000ms, 0735ms total)
T0A88 000:866 JLINK_SetBPEx(Addr = 0x20000000, Type = 0xFFFFFFF2)  returns 0x00000002 (0000ms, 0735ms total)
T0A88 000:866 JLINK_Go() -- CPU_ReadMem(4 bytes @ 0xE0001000) (0003ms, 0738ms total)
T0A88 000:869 JLINK_IsHalted()  returns FALSE (0000ms, 0738ms total)
T0A88 000:949 JLINK_IsHalted() -- CPU_ReadMem(2 bytes @ 0x20000000)  returns TRUE (0003ms, 0741ms total)
T0A88 000:952 JLINK_ReadReg(R15 (PC))  returns 0x20000000 (0000ms, 0738ms total)
T0A88 000:952 JLINK_ClrBPEx(BPHandle = 0x00000002)  returns 0x00 (0000ms, 0738ms total)
T0A88 000:952 JLINK_ReadReg(R0)  returns 0x00000000 (0000ms, 0738ms total)
T0A88 001:003 JLINK_WriteReg(R0, 0x00000001)  returns 0x00 (0000ms, 0738ms total)
T0A88 001:003 JLINK_WriteReg(R1, 0x00B71B00)  returns 0x00 (0000ms, 0738ms total)
T0A88 001:003 JLINK_WriteReg(R2, 0x00000001)  returns 0x00 (0000ms, 0738ms total)
T0A88 001:003 JLINK_WriteReg(R3, 0x00000000)  returns 0x00 (0000ms, 0738ms total)
T0A88 001:003 JLINK_WriteReg(R4, 0x00000000)  returns 0x00 (0000ms, 0738ms total)
T0A88 001:003 JLINK_WriteReg(R5, 0x00000000)  returns 0x00 (0000ms, 0738ms total)
T0A88 001:003 JLINK_WriteReg(R6, 0x00000000)  returns 0x00 (0000ms, 0738ms total)
T0A88 001:003 JLINK_WriteReg(R7, 0x00000000)  returns 0x00 (0000ms, 0738ms total)
T0A88 001:003 JLINK_WriteReg(R8, 0x00000000)  returns 0x00 (0000ms, 0738ms total)
T0A88 001:003 JLINK_WriteReg(R9, 0x20000160)  returns 0x00 (0000ms, 0738ms total)
T0A88 001:003 JLINK_WriteReg(R10, 0x00000000)  returns 0x00 (0000ms, 0738ms total)
T0A88 001:003 JLINK_WriteReg(R11, 0x00000000)  returns 0x00 (0000ms, 0738ms total)
T0A88 001:003 JLINK_WriteReg(R12, 0x00000000)  returns 0x00 (0000ms, 0738ms total)
T0A88 001:003 JLINK_WriteReg(R13 (SP), 0x20000800)  returns 0x00 (0000ms, 0738ms total)
T0A88 001:003 JLINK_WriteReg(R14, 0x20000001)  returns 0x00 (0000ms, 0738ms total)
T0A88 001:003 JLINK_WriteReg(R15 (PC), 0x2000006A)  returns 0x00 (0000ms, 0738ms total)
T0A88 001:003 JLINK_WriteReg(XPSR, 0x01000000)  returns 0x00 (0000ms, 0738ms total)
T0A88 001:003 JLINK_WriteReg(MSP, 0x20000800)  returns 0x00 (0000ms, 0738ms total)
T0A88 001:003 JLINK_WriteReg(PSP, 0x20000800)  returns 0x00 (0000ms, 0738ms total)
T0A88 001:003 JLINK_WriteReg(CFBP, 0x00000000)  returns 0x00 (0000ms, 0738ms total)
T0A88 001:003 JLINK_SetBPEx(Addr = 0x20000000, Type = 0xFFFFFFF2)  returns 0x00000003 (0000ms, 0738ms total)
T0A88 001:003 JLINK_Go() -- CPU_ReadMem(4 bytes @ 0xE0001000) (0002ms, 0740ms total)
T0A88 001:005 JLINK_IsHalted() -- CPU_ReadMem(2 bytes @ 0x20000000)  returns TRUE (0004ms, 0744ms total)
T0A88 001:009 JLINK_ReadReg(R15 (PC))  returns 0x20000000 (0000ms, 0740ms total)
T0A88 001:009 JLINK_ClrBPEx(BPHandle = 0x00000003)  returns 0x00 (0000ms, 0740ms total)
T0A88 001:009 JLINK_ReadReg(R0)  returns 0x00000000 (0000ms, 0740ms total)
T0A88 001:015 JLINK_WriteMem(0x20000000, 0x0164 Bytes, ...) - Data: 00 BE 0A E0 0D 78 2D 06 68 40 08 24 40 00 00 D3 ... -- CPU_WriteMem(356 bytes @ 0x20000000)  returns 0x164 (0003ms, 0743ms total)
T0A88 001:018 JLINK_WriteReg(R0, 0x08000000)  returns 0x00 (0000ms, 0743ms total)
T0A88 001:018 JLINK_WriteReg(R1, 0x00B71B00)  returns 0x00 (0000ms, 0743ms total)
T0A88 001:018 JLINK_WriteReg(R2, 0x00000002)  returns 0x00 (0000ms, 0743ms total)
T0A88 001:018 JLINK_WriteReg(R3, 0x00000000)  returns 0x00 (0000ms, 0743ms total)
T0A88 001:018 JLINK_WriteReg(R4, 0x00000000)  returns 0x00 (0000ms, 0743ms total)
T0A88 001:018 JLINK_WriteReg(R5, 0x00000000)  returns 0x00 (0000ms, 0743ms total)
T0A88 001:018 JLINK_WriteReg(R6, 0x00000000)  returns 0x00 (0000ms, 0743ms total)
T0A88 001:018 JLINK_WriteReg(R7, 0x00000000)  returns 0x00 (0000ms, 0743ms total)
T0A88 001:018 JLINK_WriteReg(R8, 0x00000000)  returns 0x00 (0000ms, 0743ms total)
T0A88 001:018 JLINK_WriteReg(R9, 0x20000160)  returns 0x00 (0000ms, 0743ms total)
T0A88 001:018 JLINK_WriteReg(R10, 0x00000000)  returns 0x00 (0000ms, 0743ms total)
T0A88 001:018 JLINK_WriteReg(R11, 0x00000000)  returns 0x00 (0000ms, 0743ms total)
T0A88 001:018 JLINK_WriteReg(R12, 0x00000000)  returns 0x00 (0000ms, 0743ms total)
T0A88 001:018 JLINK_WriteReg(R13 (SP), 0x20000800)  returns 0x00 (0000ms, 0743ms total)
T0A88 001:018 JLINK_WriteReg(R14, 0x20000001)  returns 0x00 (0000ms, 0743ms total)
T0A88 001:018 JLINK_WriteReg(R15 (PC), 0x20000038)  returns 0x00 (0000ms, 0743ms total)
T0A88 001:018 JLINK_WriteReg(XPSR, 0x01000000)  returns 0x00 (0000ms, 0743ms total)
T0A88 001:018 JLINK_WriteReg(MSP, 0x20000800)  returns 0x00 (0000ms, 0743ms total)
T0A88 001:018 JLINK_WriteReg(PSP, 0x20000800)  returns 0x00 (0000ms, 0743ms total)
T0A88 001:018 JLINK_WriteReg(CFBP, 0x00000000)  returns 0x00 (0000ms, 0743ms total)
T0A88 001:018 JLINK_SetBPEx(Addr = 0x20000000, Type = 0xFFFFFFF2) -- CPU_ReadMem(2 bytes @ 0x20000000)  returns 0x00000004 (0001ms, 0744ms total)
T0A88 001:019 JLINK_Go() -- CPU_WriteMem(2 bytes @ 0x20000000) -- CPU_ReadMem(4 bytes @ 0xE0001000) (0003ms, 0747ms total)
T0A88 001:022 JLINK_IsHalted() -- CPU_ReadMem(2 bytes @ 0x20000000)  returns TRUE (0004ms, 0751ms total)
T0A88 001:026 JLINK_ReadReg(R15 (PC))  returns 0x20000000 (0000ms, 0747ms total)
T0A88 001:026 JLINK_ClrBPEx(BPHandle = 0x00000004)  returns 0x00 (0000ms, 0747ms total)
T0A88 001:026 JLINK_ReadReg(R0)  returns 0x00000000 (0000ms, 0747ms total)
T0A88 001:027 JLINK_WriteMem(0x20000164, 0x0400 Bytes, ...) - Data: B8 15 00 20 45 01 00 08 05 10 00 08 07 10 00 08 ... -- CPU_WriteMem(1024 bytes @ 0x20000164)  returns 0x400 (0006ms, 0753ms total)
T0A88 001:033 JLINK_WriteReg(R0, 0x08000000)  returns 0x00 (0000ms, 0753ms total)
T0A88 001:033 JLINK_WriteReg(R1, 0x00000400)  returns 0x00 (0000ms, 0753ms total)
T0A88 001:033 JLINK_WriteReg(R2, 0x20000164)  returns 0x00 (0000ms, 0753ms total)
T0A88 001:033 JLINK_WriteReg(R3, 0x00000000)  returns 0x00 (0000ms, 0753ms total)
T0A88 001:033 JLINK_WriteReg(R4, 0x00000000)  returns 0x00 (0000ms, 0753ms total)
T0A88 001:033 JLINK_WriteReg(R5, 0x00000000)  returns 0x00 (0001ms, 0754ms total)
T0A88 001:034 JLINK_WriteReg(R6, 0x00000000)  returns 0x00 (0000ms, 0754ms total)
T0A88 001:034 JLINK_WriteReg(R7, 0x00000000)  returns 0x00 (0000ms, 0754ms total)
T0A88 001:034 JLINK_WriteReg(R8, 0x00000000)  returns 0x00 (0000ms, 0754ms total)
T0A88 001:034 JLINK_WriteReg(R9, 0x20000160)  returns 0x00 (0000ms, 0754ms total)
T0A88 001:034 JLINK_WriteReg(R10, 0x00000000)  returns 0x00 (0000ms, 0754ms total)
T0A88 001:034 JLINK_WriteReg(R11, 0x00000000)  returns 0x00 (0000ms, 0754ms total)
T0A88 001:034 JLINK_WriteReg(R12, 0x00000000)  returns 0x00 (0000ms, 0754ms total)
T0A88 001:034 JLINK_WriteReg(R13 (SP), 0x20000800)  returns 0x00 (0000ms, 0754ms total)
T0A88 001:034 JLINK_WriteReg(R14, 0x20000001)  returns 0x00 (0000ms, 0754ms total)
T0A88 001:034 JLINK_WriteReg(R15 (PC), 0x200000F4)  returns 0x00 (0000ms, 0754ms total)
T0A88 001:034 JLINK_WriteReg(XPSR, 0x01000000)  returns 0x00 (0000ms, 0754ms total)
T0A88 001:034 JLINK_WriteReg(MSP, 0x20000800)  returns 0x00 (0000ms, 0754ms total)
T0A88 001:034 JLINK_WriteReg(PSP, 0x20000800)  returns 0x00 (0000ms, 0754ms total)
T0A88 001:034 JLINK_WriteReg(CFBP, 0x00000000)  returns 0x00 (0000ms, 0754ms total)
T0A88 001:034 JLINK_SetBPEx(Addr = 0x20000000, Type = 0xFFFFFFF2)  returns 0x00000005 (0000ms, 0754ms total)
T0A88 001:034 JLINK_Go() -- CPU_ReadMem(4 bytes @ 0xE0001000) (0003ms, 0757ms total)
T0A88 001:037 JLINK_IsHalted()  returns FALSE (0001ms, 0758ms total)
T0A88 001:068 JLINK_IsHalted() -- CPU_ReadMem(2 bytes @ 0x20000000)  returns TRUE (0003ms, 0760ms total)
T0A88 001:071 JLINK_ReadReg(R15 (PC))  returns 0x20000000 (0000ms, 0757ms total)
T0A88 001:071 JLINK_ClrBPEx(BPHandle = 0x00000005)  returns 0x00 (0000ms, 0757ms total)
T0A88 001:071 JLINK_ReadReg(R0)  returns 0x00000000 (0000ms, 0757ms total)
T0A88 001:072 JLINK_WriteMem(0x20000164, 0x0400 Bytes, ...) - Data: A8 01 00 20 04 00 00 20 64 0D 00 20 0C 00 00 20 ... -- CPU_WriteMem(1024 bytes @ 0x20000164)  returns 0x400 (0006ms, 0763ms total)
T0A88 001:079 JLINK_WriteReg(R0, 0x08000400)  returns 0x00 (0000ms, 0763ms total)
T0A88 001:079 JLINK_WriteReg(R1, 0x00000400)  returns 0x00 (0000ms, 0763ms total)
T0A88 001:079 JLINK_WriteReg(R2, 0x20000164)  returns 0x00 (0000ms, 0763ms total)
T0A88 001:079 JLINK_WriteReg(R3, 0x00000000)  returns 0x00 (0000ms, 0763ms total)
T0A88 001:079 JLINK_WriteReg(R4, 0x00000000)  returns 0x00 (0000ms, 0763ms total)
T0A88 001:079 JLINK_WriteReg(R5, 0x00000000)  returns 0x00 (0000ms, 0763ms total)
T0A88 001:079 JLINK_WriteReg(R6, 0x00000000)  returns 0x00 (0000ms, 0763ms total)
T0A88 001:079 JLINK_WriteReg(R7, 0x00000000)  returns 0x00 (0000ms, 0763ms total)
T0A88 001:079 JLINK_WriteReg(R8, 0x00000000)  returns 0x00 (0000ms, 0763ms total)
T0A88 001:079 JLINK_WriteReg(R9, 0x20000160)  returns 0x00 (0000ms, 0763ms total)
T0A88 001:079 JLINK_WriteReg(R10, 0x00000000)  returns 0x00 (0000ms, 0763ms total)
T0A88 001:079 JLINK_WriteReg(R11, 0x00000000)  returns 0x00 (0000ms, 0763ms total)
T0A88 001:079 JLINK_WriteReg(R12, 0x00000000)  returns 0x00 (0000ms, 0763ms total)
T0A88 001:079 JLINK_WriteReg(R13 (SP), 0x20000800)  returns 0x00 (0000ms, 0763ms total)
T0A88 001:079 JLINK_WriteReg(R14, 0x20000001)  returns 0x00 (0000ms, 0763ms total)
T0A88 001:079 JLINK_WriteReg(R15 (PC), 0x200000F4)  returns 0x00 (0000ms, 0763ms total)
T0A88 001:079 JLINK_WriteReg(XPSR, 0x01000000)  returns 0x00 (0000ms, 0763ms total)
T0A88 001:079 JLINK_WriteReg(MSP, 0x20000800)  returns 0x00 (0000ms, 0763ms total)
T0A88 001:079 JLINK_WriteReg(PSP, 0x20000800)  returns 0x00 (0000ms, 0763ms total)
T0A88 001:079 JLINK_WriteReg(CFBP, 0x00000000)  returns 0x00 (0000ms, 0763ms total)
T0A88 001:079 JLINK_SetBPEx(Addr = 0x20000000, Type = 0xFFFFFFF2)  returns 0x00000006 (0000ms, 0763ms total)
T0A88 001:079 JLINK_Go() -- CPU_ReadMem(4 bytes @ 0xE0001000) (0003ms, 0766ms total)
T0A88 001:082 JLINK_IsHalted()  returns FALSE (0000ms, 0766ms total)
T0A88 001:086 JLINK_IsHalted()  returns FALSE (0000ms, 0766ms total)
T0A88 001:087 JLINK_IsHalted()  returns FALSE (0000ms, 0766ms total)
T0A88 001:088 JLINK_IsHalted()  returns FALSE (0000ms, 0766ms total)
T0A88 001:089 JLINK_IsHalted()  returns FALSE (0000ms, 0766ms total)
T0A88 001:090 JLINK_IsHalted()  returns FALSE (0000ms, 0766ms total)
T0A88 001:091 JLINK_IsHalted()  returns FALSE (0000ms, 0766ms total)
T0A88 001:092 JLINK_IsHalted()  returns FALSE (0000ms, 0766ms total)
T0A88 001:093 JLINK_IsHalted()  returns FALSE (0000ms, 0766ms total)
T0A88 001:094 JLINK_IsHalted()  returns FALSE (0000ms, 0766ms total)
T0A88 001:095 JLINK_IsHalted()  returns FALSE (0000ms, 0766ms total)
T0A88 001:096 JLINK_IsHalted()  returns FALSE (0001ms, 0767ms total)
T0A88 001:098 JLINK_IsHalted()  returns FALSE (0000ms, 0766ms total)
T0A88 001:102 JLINK_IsHalted()  returns FALSE (0000ms, 0766ms total)
T0A88 001:103 JLINK_IsHalted()  returns FALSE (0000ms, 0766ms total)
T0A88 001:104 JLINK_IsHalted()  returns FALSE (0000ms, 0766ms total)
T0A88 001:105 JLINK_IsHalted()  returns FALSE (0000ms, 0766ms total)
T0A88 001:106 JLINK_IsHalted()  returns FALSE (0000ms, 0766ms total)
T0A88 001:107 JLINK_IsHalted()  returns FALSE (0000ms, 0766ms total)
T0A88 001:108 JLINK_IsHalted()  returns FALSE (0000ms, 0766ms total)
T0A88 001:109 JLINK_IsHalted()  returns FALSE (0000ms, 0766ms total)
T0A88 001:112 JLINK_IsHalted() -- CPU_ReadMem(2 bytes @ 0x20000000)  returns TRUE (0004ms, 0770ms total)
T0A88 001:116 JLINK_ReadReg(R15 (PC))  returns 0x20000000 (0000ms, 0766ms total)
T0A88 001:116 JLINK_ClrBPEx(BPHandle = 0x00000006)  returns 0x00 (0000ms, 0766ms total)
T0A88 001:116 JLINK_ReadReg(R0)  returns 0x00000000 (0000ms, 0766ms total)
T0A88 001:116 JLINK_WriteMem(0x20000164, 0x0400 Bytes, ...) - Data: 00 21 E0 88 61 F3 8C 00 E0 80 01 20 00 EB 05 21 ... -- CPU_WriteMem(1024 bytes @ 0x20000164)  returns 0x400 (0007ms, 0773ms total)
T0A88 001:123 JLINK_WriteReg(R0, 0x08000800)  returns 0x00 (0000ms, 0773ms total)
T0A88 001:123 JLINK_WriteReg(R1, 0x00000400)  returns 0x00 (0000ms, 0773ms total)
T0A88 001:123 JLINK_WriteReg(R2, 0x20000164)  returns 0x00 (0000ms, 0773ms total)
T0A88 001:123 JLINK_WriteReg(R3, 0x00000000)  returns 0x00 (0000ms, 0773ms total)
T0A88 001:123 JLINK_WriteReg(R4, 0x00000000)  returns 0x00 (0000ms, 0773ms total)
T0A88 001:123 JLINK_WriteReg(R5, 0x00000000)  returns 0x00 (0000ms, 0773ms total)
T0A88 001:123 JLINK_WriteReg(R6, 0x00000000)  returns 0x00 (0000ms, 0773ms total)
T0A88 001:123 JLINK_WriteReg(R7, 0x00000000)  returns 0x00 (0000ms, 0773ms total)
T0A88 001:123 JLINK_WriteReg(R8, 0x00000000)  returns 0x00 (0001ms, 0774ms total)
T0A88 001:124 JLINK_WriteReg(R9, 0x20000160)  returns 0x00 (0000ms, 0774ms total)
T0A88 001:124 JLINK_WriteReg(R10, 0x00000000)  returns 0x00 (0000ms, 0774ms total)
T0A88 001:124 JLINK_WriteReg(R11, 0x00000000)  returns 0x00 (0000ms, 0774ms total)
T0A88 001:124 JLINK_WriteReg(R12, 0x00000000)  returns 0x00 (0000ms, 0774ms total)
T0A88 001:124 JLINK_WriteReg(R13 (SP), 0x20000800)  returns 0x00 (0000ms, 0774ms total)
T0A88 001:124 JLINK_WriteReg(R14, 0x20000001)  returns 0x00 (0000ms, 0774ms total)
T0A88 001:124 JLINK_WriteReg(R15 (PC), 0x200000F4)  returns 0x00 (0000ms, 0774ms total)
T0A88 001:124 JLINK_WriteReg(XPSR, 0x01000000)  returns 0x00 (0000ms, 0774ms total)
T0A88 001:124 JLINK_WriteReg(MSP, 0x20000800)  returns 0x00 (0000ms, 0774ms total)
T0A88 001:124 JLINK_WriteReg(PSP, 0x20000800)  returns 0x00 (0000ms, 0774ms total)
T0A88 001:124 JLINK_WriteReg(CFBP, 0x00000000)  returns 0x00 (0000ms, 0774ms total)
T0A88 001:124 JLINK_SetBPEx(Addr = 0x20000000, Type = 0xFFFFFFF2)  returns 0x00000007 (0000ms, 0774ms total)
T0A88 001:124 JLINK_Go() -- CPU_ReadMem(4 bytes @ 0xE0001000) (0003ms, 0777ms total)
T0A88 001:127 JLINK_IsHalted()  returns FALSE (0000ms, 0777ms total)
T0A88 001:143 JLINK_IsHalted()  returns FALSE (0002ms, 0779ms total)
T0A88 001:148 JLINK_IsHalted()  returns FALSE (0000ms, 0777ms total)
T0A88 001:149 JLINK_IsHalted()  returns FALSE (0000ms, 0777ms total)
T0A88 001:152 JLINK_IsHalted()  returns FALSE (0000ms, 0777ms total)
T0A88 001:153 JLINK_IsHalted()  returns FALSE (0000ms, 0777ms total)
T0A88 001:154 JLINK_IsHalted()  returns FALSE (0000ms, 0777ms total)
T0A88 001:155 JLINK_IsHalted()  returns FALSE (0000ms, 0777ms total)
T0A88 001:156 JLINK_IsHalted()  returns FALSE (0000ms, 0777ms total)
T0A88 001:157 JLINK_IsHalted()  returns FALSE (0000ms, 0777ms total)
T0A88 001:158 JLINK_IsHalted() -- CPU_ReadMem(2 bytes @ 0x20000000)  returns TRUE (0003ms, 0780ms total)
T0A88 001:161 JLINK_ReadReg(R15 (PC))  returns 0x20000000 (0000ms, 0777ms total)
T0A88 001:161 JLINK_ClrBPEx(BPHandle = 0x00000007)  returns 0x00 (0000ms, 0777ms total)
T0A88 001:161 JLINK_ReadReg(R0)  returns 0x00000000 (0000ms, 0777ms total)
T0A88 001:162 JLINK_WriteMem(0x20000164, 0x0400 Bytes, ...) - Data: 0A 00 01 20 8D F8 0B 00 00 20 8D F8 0C 00 4B F2 ... -- CPU_WriteMem(1024 bytes @ 0x20000164)  returns 0x400 (0007ms, 0784ms total)
T0A88 001:169 JLINK_WriteReg(R0, 0x08000C00)  returns 0x00 (0000ms, 0784ms total)
T0A88 001:169 JLINK_WriteReg(R1, 0x00000400)  returns 0x00 (0000ms, 0784ms total)
T0A88 001:169 JLINK_WriteReg(R2, 0x20000164)  returns 0x00 (0000ms, 0784ms total)
T0A88 001:169 JLINK_WriteReg(R3, 0x00000000)  returns 0x00 (0000ms, 0784ms total)
T0A88 001:169 JLINK_WriteReg(R4, 0x00000000)  returns 0x00 (0000ms, 0784ms total)
T0A88 001:169 JLINK_WriteReg(R5, 0x00000000)  returns 0x00 (0000ms, 0784ms total)
T0A88 001:169 JLINK_WriteReg(R6, 0x00000000)  returns 0x00 (0000ms, 0784ms total)
T0A88 001:169 JLINK_WriteReg(R7, 0x00000000)  returns 0x00 (0000ms, 0784ms total)
T0A88 001:169 JLINK_WriteReg(R8, 0x00000000)  returns 0x00 (0000ms, 0784ms total)
T0A88 001:169 JLINK_WriteReg(R9, 0x20000160)  returns 0x00 (0000ms, 0784ms total)
T0A88 001:169 JLINK_WriteReg(R10, 0x00000000)  returns 0x00 (0000ms, 0784ms total)
T0A88 001:169 JLINK_WriteReg(R11, 0x00000000)  returns 0x00 (0000ms, 0784ms total)
T0A88 001:169 JLINK_WriteReg(R12, 0x00000000)  returns 0x00 (0000ms, 0784ms total)
T0A88 001:169 JLINK_WriteReg(R13 (SP), 0x20000800)  returns 0x00 (0000ms, 0784ms total)
T0A88 001:169 JLINK_WriteReg(R14, 0x20000001)  returns 0x00 (0000ms, 0784ms total)
T0A88 001:169 JLINK_WriteReg(R15 (PC), 0x200000F4)  returns 0x00 (0000ms, 0784ms total)
T0A88 001:169 JLINK_WriteReg(XPSR, 0x01000000)  returns 0x00 (0000ms, 0784ms total)
T0A88 001:169 JLINK_WriteReg(MSP, 0x20000800)  returns 0x00 (0000ms, 0784ms total)
T0A88 001:169 JLINK_WriteReg(PSP, 0x20000800)  returns 0x00 (0000ms, 0784ms total)
T0A88 001:169 JLINK_WriteReg(CFBP, 0x00000000)  returns 0x00 (0000ms, 0784ms total)
T0A88 001:169 JLINK_SetBPEx(Addr = 0x20000000, Type = 0xFFFFFFF2)  returns 0x00000008 (0000ms, 0784ms total)
T0A88 001:169 JLINK_Go() -- CPU_ReadMem(4 bytes @ 0xE0001000) (0003ms, 0787ms total)
T0A88 001:172 JLINK_IsHalted()  returns FALSE (0001ms, 0788ms total)
T0A88 001:179 JLINK_IsHalted()  returns FALSE (0000ms, 0787ms total)
T0A88 001:181 JLINK_IsHalted()  returns FALSE (0001ms, 0788ms total)
T0A88 001:183 JLINK_IsHalted()  returns FALSE (0000ms, 0787ms total)
T0A88 001:184 JLINK_IsHalted()  returns FALSE (0000ms, 0787ms total)
T0A88 001:185 JLINK_IsHalted()  returns FALSE (0000ms, 0787ms total)
T0A88 001:186 JLINK_IsHalted()  returns FALSE (0000ms, 0787ms total)
T0A88 001:187 JLINK_IsHalted()  returns FALSE (0000ms, 0787ms total)
T0A88 001:188 JLINK_IsHalted()  returns FALSE (0000ms, 0787ms total)
T0A88 001:189 JLINK_IsHalted()  returns FALSE (0000ms, 0787ms total)
T0A88 001:190 JLINK_IsHalted()  returns FALSE (0000ms, 0787ms total)
T0A88 001:191 JLINK_IsHalted()  returns FALSE (0000ms, 0787ms total)
T0A88 001:195 JLINK_IsHalted()  returns FALSE (0000ms, 0787ms total)
T0A88 001:196 JLINK_IsHalted()  returns FALSE (0000ms, 0787ms total)
T0A88 001:197 JLINK_IsHalted()  returns FALSE (0000ms, 0787ms total)
T0A88 001:198 JLINK_IsHalted()  returns FALSE (0000ms, 0787ms total)
T0A88 001:199 JLINK_IsHalted()  returns FALSE (0000ms, 0787ms total)
T0A88 001:200 JLINK_IsHalted()  returns FALSE (0000ms, 0787ms total)
T0A88 001:201 JLINK_IsHalted()  returns FALSE (0000ms, 0787ms total)
T0A88 001:202 JLINK_IsHalted()  returns FALSE (0000ms, 0787ms total)
T0A88 001:203 JLINK_IsHalted() -- CPU_ReadMem(2 bytes @ 0x20000000)  returns TRUE (0004ms, 0791ms total)
T0A88 001:207 JLINK_ReadReg(R15 (PC))  returns 0x20000000 (0000ms, 0787ms total)
T0A88 001:207 JLINK_ClrBPEx(BPHandle = 0x00000008)  returns 0x00 (0000ms, 0787ms total)
T0A88 001:207 JLINK_ReadReg(R0)  returns 0x00000000 (0000ms, 0787ms total)
T0A88 001:207 JLINK_WriteMem(0x20000164, 0x0400 Bytes, ...) - Data: 00 38 01 40 70 47 00 BF FE E7 00 BF FE E7 00 BF ... -- CPU_WriteMem(1024 bytes @ 0x20000164)  returns 0x400 (0007ms, 0794ms total)
T0A88 001:214 JLINK_WriteReg(R0, 0x08001000)  returns 0x00 (0000ms, 0794ms total)
T0A88 001:214 JLINK_WriteReg(R1, 0x00000400)  returns 0x00 (0000ms, 0794ms total)
T0A88 001:214 JLINK_WriteReg(R2, 0x20000164)  returns 0x00 (0000ms, 0794ms total)
T0A88 001:214 JLINK_WriteReg(R3, 0x00000000)  returns 0x00 (0000ms, 0794ms total)
T0A88 001:214 JLINK_WriteReg(R4, 0x00000000)  returns 0x00 (0000ms, 0794ms total)
T0A88 001:214 JLINK_WriteReg(R5, 0x00000000)  returns 0x00 (0000ms, 0794ms total)
T0A88 001:214 JLINK_WriteReg(R6, 0x00000000)  returns 0x00 (0000ms, 0794ms total)
T0A88 001:214 JLINK_WriteReg(R7, 0x00000000)  returns 0x00 (0000ms, 0794ms total)
T0A88 001:214 JLINK_WriteReg(R8, 0x00000000)  returns 0x00 (0000ms, 0794ms total)
T0A88 001:214 JLINK_WriteReg(R9, 0x20000160)  returns 0x00 (0000ms, 0794ms total)
T0A88 001:214 JLINK_WriteReg(R10, 0x00000000)  returns 0x00 (0000ms, 0794ms total)
T0A88 001:214 JLINK_WriteReg(R11, 0x00000000)  returns 0x00 (0000ms, 0794ms total)
T0A88 001:214 JLINK_WriteReg(R12, 0x00000000)  returns 0x00 (0000ms, 0794ms total)
T0A88 001:215 JLINK_WriteReg(R13 (SP), 0x20000800)  returns 0x00 (0000ms, 0794ms total)
T0A88 001:215 JLINK_WriteReg(R14, 0x20000001)  returns 0x00 (0000ms, 0794ms total)
T0A88 001:215 JLINK_WriteReg(R15 (PC), 0x200000F4)  returns 0x00 (0000ms, 0794ms total)
T0A88 001:215 JLINK_WriteReg(XPSR, 0x01000000)  returns 0x00 (0000ms, 0794ms total)
T0A88 001:215 JLINK_WriteReg(MSP, 0x20000800)  returns 0x00 (0000ms, 0794ms total)
T0A88 001:215 JLINK_WriteReg(PSP, 0x20000800)  returns 0x00 (0000ms, 0794ms total)
T0A88 001:215 JLINK_WriteReg(CFBP, 0x00000000)  returns 0x00 (0000ms, 0794ms total)
T0A88 001:215 JLINK_SetBPEx(Addr = 0x20000000, Type = 0xFFFFFFF2)  returns 0x00000009 (0000ms, 0794ms total)
T0A88 001:215 JLINK_Go() -- CPU_ReadMem(4 bytes @ 0xE0001000) (0002ms, 0796ms total)
T0A88 001:217 JLINK_IsHalted()  returns FALSE (0001ms, 0797ms total)
T0A88 001:233 JLINK_IsHalted()  returns FALSE (0000ms, 0796ms total)
T0A88 001:234 JLINK_IsHalted()  returns FALSE (0000ms, 0796ms total)
T0A88 001:235 JLINK_IsHalted()  returns FALSE (0000ms, 0796ms total)
T0A88 001:236 JLINK_IsHalted()  returns FALSE (0001ms, 0797ms total)
T0A88 001:240 JLINK_IsHalted()  returns FALSE (0000ms, 0796ms total)
T0A88 001:241 JLINK_IsHalted()  returns FALSE (0001ms, 0797ms total)
T0A88 001:243 JLINK_IsHalted()  returns FALSE (0000ms, 0796ms total)
T0A88 001:244 JLINK_IsHalted()  returns FALSE (0000ms, 0796ms total)
T0A88 001:245 JLINK_IsHalted()  returns FALSE (0001ms, 0797ms total)
T0A88 001:247 JLINK_IsHalted()  returns FALSE (0001ms, 0797ms total)
T0A88 001:249 JLINK_IsHalted() -- CPU_ReadMem(2 bytes @ 0x20000000)  returns TRUE (0003ms, 0799ms total)
T0A88 001:252 JLINK_ReadReg(R15 (PC))  returns 0x20000000 (0000ms, 0796ms total)
T0A88 001:252 JLINK_ClrBPEx(BPHandle = 0x00000009)  returns 0x00 (0000ms, 0796ms total)
T0A88 001:252 JLINK_ReadReg(R0)  returns 0x00000000 (0000ms, 0796ms total)
T0A88 001:253 JLINK_WriteMem(0x20000164, 0x0400 Bytes, ...) - Data: 00 21 11 60 11 46 09 68 21 F0 01 01 11 60 70 47 ... -- CPU_WriteMem(1024 bytes @ 0x20000164)  returns 0x400 (0007ms, 0803ms total)
T0A88 001:260 JLINK_WriteReg(R0, 0x08001400)  returns 0x00 (0000ms, 0803ms total)
T0A88 001:260 JLINK_WriteReg(R1, 0x00000400)  returns 0x00 (0000ms, 0803ms total)
T0A88 001:260 JLINK_WriteReg(R2, 0x20000164)  returns 0x00 (0000ms, 0803ms total)
T0A88 001:260 JLINK_WriteReg(R3, 0x00000000)  returns 0x00 (0000ms, 0803ms total)
T0A88 001:260 JLINK_WriteReg(R4, 0x00000000)  returns 0x00 (0000ms, 0803ms total)
T0A88 001:260 JLINK_WriteReg(R5, 0x00000000)  returns 0x00 (0000ms, 0803ms total)
T0A88 001:260 JLINK_WriteReg(R6, 0x00000000)  returns 0x00 (0000ms, 0803ms total)
T0A88 001:260 JLINK_WriteReg(R7, 0x00000000)  returns 0x00 (0000ms, 0803ms total)
T0A88 001:260 JLINK_WriteReg(R8, 0x00000000)  returns 0x00 (0000ms, 0803ms total)
T0A88 001:260 JLINK_WriteReg(R9, 0x20000160)  returns 0x00 (0000ms, 0803ms total)
T0A88 001:260 JLINK_WriteReg(R10, 0x00000000)  returns 0x00 (0000ms, 0803ms total)
T0A88 001:260 JLINK_WriteReg(R11, 0x00000000)  returns 0x00 (0000ms, 0803ms total)
T0A88 001:260 JLINK_WriteReg(R12, 0x00000000)  returns 0x00 (0000ms, 0803ms total)
T0A88 001:260 JLINK_WriteReg(R13 (SP), 0x20000800)  returns 0x00 (0000ms, 0803ms total)
T0A88 001:260 JLINK_WriteReg(R14, 0x20000001)  returns 0x00 (0000ms, 0803ms total)
T0A88 001:260 JLINK_WriteReg(R15 (PC), 0x200000F4)  returns 0x00 (0000ms, 0803ms total)
T0A88 001:260 JLINK_WriteReg(XPSR, 0x01000000)  returns 0x00 (0000ms, 0803ms total)
T0A88 001:260 JLINK_WriteReg(MSP, 0x20000800)  returns 0x00 (0000ms, 0803ms total)
T0A88 001:260 JLINK_WriteReg(PSP, 0x20000800)  returns 0x00 (0000ms, 0803ms total)
T0A88 001:260 JLINK_WriteReg(CFBP, 0x00000000)  returns 0x00 (0000ms, 0803ms total)
T0A88 001:260 JLINK_SetBPEx(Addr = 0x20000000, Type = 0xFFFFFFF2)  returns 0x0000000A (0000ms, 0803ms total)
T0A88 001:260 JLINK_Go() -- CPU_ReadMem(4 bytes @ 0xE0001000) (0003ms, 0806ms total)
T0A88 001:263 JLINK_IsHalted()  returns FALSE (0001ms, 0807ms total)
T0A88 001:267 JLINK_IsHalted()  returns FALSE (0000ms, 0806ms total)
T0A88 001:268 JLINK_IsHalted()  returns FALSE (0000ms, 0806ms total)
T0A88 001:272 JLINK_IsHalted()  returns FALSE (0000ms, 0806ms total)
T0A88 001:273 JLINK_IsHalted()  returns FALSE (0000ms, 0806ms total)
T0A88 001:274 JLINK_IsHalted()  returns FALSE (0000ms, 0806ms total)
T0A88 001:275 JLINK_IsHalted()  returns FALSE (0001ms, 0807ms total)
T0A88 001:277 JLINK_IsHalted()  returns FALSE (0000ms, 0806ms total)
T0A88 001:278 JLINK_IsHalted()  returns FALSE (0000ms, 0806ms total)
T0A88 001:279 JLINK_IsHalted()  returns FALSE (0000ms, 0806ms total)
T0A88 001:280 JLINK_IsHalted()  returns FALSE (0000ms, 0806ms total)
T0A88 001:281 JLINK_IsHalted()  returns FALSE (0000ms, 0806ms total)
T0A88 001:282 JLINK_IsHalted()  returns FALSE (0000ms, 0806ms total)
T0A88 001:283 JLINK_IsHalted()  returns FALSE (0000ms, 0806ms total)
T0A88 001:284 JLINK_IsHalted()  returns FALSE (0000ms, 0806ms total)
T0A88 001:285 JLINK_IsHalted()  returns FALSE (0000ms, 0806ms total)
T0A88 001:286 JLINK_IsHalted()  returns FALSE (0000ms, 0806ms total)
T0A88 001:290 JLINK_IsHalted()  returns FALSE (0000ms, 0806ms total)
T0A88 001:291 JLINK_IsHalted()  returns FALSE (0000ms, 0806ms total)
T0A88 001:292 JLINK_IsHalted()  returns FALSE (0000ms, 0806ms total)
T0A88 001:293 JLINK_IsHalted()  returns FALSE (0000ms, 0806ms total)
T0A88 001:294 JLINK_IsHalted() -- CPU_ReadMem(2 bytes @ 0x20000000)  returns TRUE (0003ms, 0809ms total)
T0A88 001:297 JLINK_ReadReg(R15 (PC))  returns 0x20000000 (0000ms, 0806ms total)
T0A88 001:297 JLINK_ClrBPEx(BPHandle = 0x0000000A)  returns 0x00 (0000ms, 0806ms total)
T0A88 001:297 JLINK_ReadReg(R0)  returns 0x00000000 (0000ms, 0806ms total)
T0A88 001:298 JLINK_WriteMem(0x20000164, 0x0400 Bytes, ...) - Data: 00 29 F8 D1 54 68 04 F0 03 04 0C B1 00 20 1C E0 ... -- CPU_WriteMem(1024 bytes @ 0x20000164)  returns 0x400 (0006ms, 0812ms total)
T0A88 001:304 JLINK_WriteReg(R0, 0x08001800)  returns 0x00 (0000ms, 0812ms total)
T0A88 001:304 JLINK_WriteReg(R1, 0x00000400)  returns 0x00 (0000ms, 0812ms total)
T0A88 001:304 JLINK_WriteReg(R2, 0x20000164)  returns 0x00 (0000ms, 0812ms total)
T0A88 001:304 JLINK_WriteReg(R3, 0x00000000)  returns 0x00 (0000ms, 0812ms total)
T0A88 001:304 JLINK_WriteReg(R4, 0x00000000)  returns 0x00 (0000ms, 0812ms total)
T0A88 001:304 JLINK_WriteReg(R5, 0x00000000)  returns 0x00 (0000ms, 0812ms total)
T0A88 001:304 JLINK_WriteReg(R6, 0x00000000)  returns 0x00 (0000ms, 0812ms total)
T0A88 001:304 JLINK_WriteReg(R7, 0x00000000)  returns 0x00 (0000ms, 0812ms total)
T0A88 001:304 JLINK_WriteReg(R8, 0x00000000)  returns 0x00 (0000ms, 0812ms total)
T0A88 001:304 JLINK_WriteReg(R9, 0x20000160)  returns 0x00 (0000ms, 0812ms total)
T0A88 001:304 JLINK_WriteReg(R10, 0x00000000)  returns 0x00 (0000ms, 0812ms total)
T0A88 001:304 JLINK_WriteReg(R11, 0x00000000)  returns 0x00 (0000ms, 0812ms total)
T0A88 001:304 JLINK_WriteReg(R12, 0x00000000)  returns 0x00 (0000ms, 0812ms total)
T0A88 001:305 JLINK_WriteReg(R13 (SP), 0x20000800)  returns 0x00 (0000ms, 0813ms total)
T0A88 001:305 JLINK_WriteReg(R14, 0x20000001)  returns 0x00 (0000ms, 0813ms total)
T0A88 001:305 JLINK_WriteReg(R15 (PC), 0x200000F4)  returns 0x00 (0000ms, 0813ms total)
T0A88 001:305 JLINK_WriteReg(XPSR, 0x01000000)  returns 0x00 (0000ms, 0813ms total)
T0A88 001:305 JLINK_WriteReg(MSP, 0x20000800)  returns 0x00 (0000ms, 0813ms total)
T0A88 001:305 JLINK_WriteReg(PSP, 0x20000800)  returns 0x00 (0000ms, 0813ms total)
T0A88 001:305 JLINK_WriteReg(CFBP, 0x00000000)  returns 0x00 (0000ms, 0813ms total)
T0A88 001:305 JLINK_SetBPEx(Addr = 0x20000000, Type = 0xFFFFFFF2)  returns 0x0000000B (0000ms, 0813ms total)
T0A88 001:305 JLINK_Go() -- CPU_ReadMem(4 bytes @ 0xE0001000) (0002ms, 0815ms total)
T0A88 001:307 JLINK_IsHalted()  returns FALSE (0001ms, 0816ms total)
T0A88 001:312 JLINK_IsHalted()  returns FALSE (0000ms, 0815ms total)
T0A88 001:313 JLINK_IsHalted()  returns FALSE (0000ms, 0815ms total)
T0A88 001:314 JLINK_IsHalted()  returns FALSE (0000ms, 0815ms total)
T0A88 001:315 JLINK_IsHalted()  returns FALSE (0000ms, 0815ms total)
T0A88 001:316 JLINK_IsHalted()  returns FALSE (0000ms, 0815ms total)
T0A88 001:317 JLINK_IsHalted()  returns FALSE (0000ms, 0815ms total)
T0A88 001:318 JLINK_IsHalted()  returns FALSE (0000ms, 0815ms total)
T0A88 001:319 JLINK_IsHalted()  returns FALSE (0000ms, 0815ms total)
T0A88 001:323 JLINK_IsHalted()  returns FALSE (0000ms, 0815ms total)
T0A88 001:324 JLINK_IsHalted()  returns FALSE (0000ms, 0815ms total)
T0A88 001:325 JLINK_IsHalted()  returns FALSE (0000ms, 0815ms total)
T0A88 001:326 JLINK_IsHalted()  returns FALSE (0000ms, 0815ms total)
T0A88 001:327 JLINK_IsHalted()  returns FALSE (0000ms, 0815ms total)
T0A88 001:328 JLINK_IsHalted()  returns FALSE (0000ms, 0815ms total)
T0A88 001:329 JLINK_IsHalted()  returns FALSE (0000ms, 0815ms total)
T0A88 001:330 JLINK_IsHalted()  returns FALSE (0000ms, 0815ms total)
T0A88 001:331 JLINK_IsHalted()  returns FALSE (0000ms, 0815ms total)
T0A88 001:343 JLINK_IsHalted() -- CPU_ReadMem(2 bytes @ 0x20000000)  returns TRUE (0003ms, 0818ms total)
T0A88 001:346 JLINK_ReadReg(R15 (PC))  returns 0x20000000 (0000ms, 0815ms total)
T0A88 001:346 JLINK_ClrBPEx(BPHandle = 0x0000000B)  returns 0x00 (0000ms, 0815ms total)
T0A88 001:346 JLINK_ReadReg(R0)  returns 0x00000000 (0000ms, 0815ms total)
T0A88 001:347 JLINK_WriteMem(0x20000164, 0x0400 Bytes, ...) - Data: 07 D1 01 21 80 15 00 F0 E5 FA 00 21 A0 15 00 F0 ... -- CPU_WriteMem(1024 bytes @ 0x20000164)  returns 0x400 (0007ms, 0822ms total)
T0A88 001:354 JLINK_WriteReg(R0, 0x08001C00)  returns 0x00 (0000ms, 0822ms total)
T0A88 001:354 JLINK_WriteReg(R1, 0x00000400)  returns 0x00 (0000ms, 0822ms total)
T0A88 001:354 JLINK_WriteReg(R2, 0x20000164)  returns 0x00 (0000ms, 0822ms total)
T0A88 001:354 JLINK_WriteReg(R3, 0x00000000)  returns 0x00 (0000ms, 0822ms total)
T0A88 001:354 JLINK_WriteReg(R4, 0x00000000)  returns 0x00 (0000ms, 0822ms total)
T0A88 001:354 JLINK_WriteReg(R5, 0x00000000)  returns 0x00 (0000ms, 0822ms total)
T0A88 001:354 JLINK_WriteReg(R6, 0x00000000)  returns 0x00 (0000ms, 0822ms total)
T0A88 001:354 JLINK_WriteReg(R7, 0x00000000)  returns 0x00 (0000ms, 0822ms total)
T0A88 001:354 JLINK_WriteReg(R8, 0x00000000)  returns 0x00 (0000ms, 0822ms total)
T0A88 001:354 JLINK_WriteReg(R9, 0x20000160)  returns 0x00 (0000ms, 0822ms total)
T0A88 001:354 JLINK_WriteReg(R10, 0x00000000)  returns 0x00 (0000ms, 0822ms total)
T0A88 001:354 JLINK_WriteReg(R11, 0x00000000)  returns 0x00 (0000ms, 0822ms total)
T0A88 001:354 JLINK_WriteReg(R12, 0x00000000)  returns 0x00 (0000ms, 0822ms total)
T0A88 001:354 JLINK_WriteReg(R13 (SP), 0x20000800)  returns 0x00 (0000ms, 0822ms total)
T0A88 001:354 JLINK_WriteReg(R14, 0x20000001)  returns 0x00 (0000ms, 0822ms total)
T0A88 001:354 JLINK_WriteReg(R15 (PC), 0x200000F4)  returns 0x00 (0000ms, 0822ms total)
T0A88 001:354 JLINK_WriteReg(XPSR, 0x01000000)  returns 0x00 (0000ms, 0822ms total)
T0A88 001:354 JLINK_WriteReg(MSP, 0x20000800)  returns 0x00 (0000ms, 0822ms total)
T0A88 001:354 JLINK_WriteReg(PSP, 0x20000800)  returns 0x00 (0000ms, 0822ms total)
T0A88 001:354 JLINK_WriteReg(CFBP, 0x00000000)  returns 0x00 (0000ms, 0822ms total)
T0A88 001:354 JLINK_SetBPEx(Addr = 0x20000000, Type = 0xFFFFFFF2)  returns 0x0000000C (0000ms, 0822ms total)
T0A88 001:354 JLINK_Go() -- CPU_ReadMem(4 bytes @ 0xE0001000) (0003ms, 0825ms total)
T0A88 001:357 JLINK_IsHalted()  returns FALSE (0001ms, 0826ms total)
T0A88 001:362 JLINK_IsHalted()  returns FALSE (0000ms, 0825ms total)
T0A88 001:366 JLINK_IsHalted()  returns FALSE (0000ms, 0825ms total)
T0A88 001:367 JLINK_IsHalted()  returns FALSE (0000ms, 0825ms total)
T0A88 001:368 JLINK_IsHalted()  returns FALSE (0000ms, 0825ms total)
T0A88 001:369 JLINK_IsHalted()  returns FALSE (0000ms, 0825ms total)
T0A88 001:370 JLINK_IsHalted()  returns FALSE (0000ms, 0825ms total)
T0A88 001:371 JLINK_IsHalted()  returns FALSE (0000ms, 0825ms total)
T0A88 001:372 JLINK_IsHalted()  returns FALSE (0000ms, 0825ms total)
T0A88 001:373 JLINK_IsHalted()  returns FALSE (0000ms, 0825ms total)
T0A88 001:374 JLINK_IsHalted()  returns FALSE (0000ms, 0825ms total)
T0A88 001:375 JLINK_IsHalted()  returns FALSE (0000ms, 0825ms total)
T0A88 001:376 JLINK_IsHalted()  returns FALSE (0000ms, 0825ms total)
T0A88 001:377 JLINK_IsHalted()  returns FALSE (0000ms, 0825ms total)
T0A88 001:378 JLINK_IsHalted()  returns FALSE (0000ms, 0825ms total)
T0A88 001:379 JLINK_IsHalted()  returns FALSE (0000ms, 0825ms total)
T0A88 001:380 JLINK_IsHalted()  returns FALSE (0000ms, 0825ms total)
T0A88 001:384 JLINK_IsHalted()  returns FALSE (0000ms, 0825ms total)
T0A88 001:385 JLINK_IsHalted()  returns FALSE (0000ms, 0825ms total)
T0A88 001:386 JLINK_IsHalted()  returns FALSE (0000ms, 0825ms total)
T0A88 001:387 JLINK_IsHalted()  returns FALSE (0000ms, 0825ms total)
T0A88 001:388 JLINK_IsHalted() -- CPU_ReadMem(2 bytes @ 0x20000000)  returns TRUE (0003ms, 0828ms total)
T0A88 001:391 JLINK_ReadReg(R15 (PC))  returns 0x20000000 (0000ms, 0825ms total)
T0A88 001:391 JLINK_ClrBPEx(BPHandle = 0x0000000C)  returns 0x00 (0000ms, 0825ms total)
T0A88 001:391 JLINK_ReadReg(R0)  returns 0x00000000 (0000ms, 0825ms total)
T0A88 001:391 JLINK_WriteMem(0x20000164, 0x0400 Bytes, ...) - Data: 50 60 70 47 8F 48 40 68 00 F0 0C 00 70 47 01 46 ... -- CPU_WriteMem(1024 bytes @ 0x20000164)  returns 0x400 (0007ms, 0832ms total)
T0A88 001:398 JLINK_WriteReg(R0, 0x08002000)  returns 0x00 (0000ms, 0832ms total)
T0A88 001:398 JLINK_WriteReg(R1, 0x00000400)  returns 0x00 (0000ms, 0832ms total)
T0A88 001:398 JLINK_WriteReg(R2, 0x20000164)  returns 0x00 (0000ms, 0832ms total)
T0A88 001:398 JLINK_WriteReg(R3, 0x00000000)  returns 0x00 (0000ms, 0832ms total)
T0A88 001:398 JLINK_WriteReg(R4, 0x00000000)  returns 0x00 (0000ms, 0832ms total)
T0A88 001:398 JLINK_WriteReg(R5, 0x00000000)  returns 0x00 (0000ms, 0832ms total)
T0A88 001:398 JLINK_WriteReg(R6, 0x00000000)  returns 0x00 (0000ms, 0832ms total)
T0A88 001:398 JLINK_WriteReg(R7, 0x00000000)  returns 0x00 (0001ms, 0833ms total)
T0A88 001:399 JLINK_WriteReg(R8, 0x00000000)  returns 0x00 (0000ms, 0833ms total)
T0A88 001:399 JLINK_WriteReg(R9, 0x20000160)  returns 0x00 (0000ms, 0833ms total)
T0A88 001:399 JLINK_WriteReg(R10, 0x00000000)  returns 0x00 (0000ms, 0833ms total)
T0A88 001:399 JLINK_WriteReg(R11, 0x00000000)  returns 0x00 (0000ms, 0833ms total)
T0A88 001:399 JLINK_WriteReg(R12, 0x00000000)  returns 0x00 (0000ms, 0833ms total)
T0A88 001:399 JLINK_WriteReg(R13 (SP), 0x20000800)  returns 0x00 (0000ms, 0833ms total)
T0A88 001:399 JLINK_WriteReg(R14, 0x20000001)  returns 0x00 (0000ms, 0833ms total)
T0A88 001:399 JLINK_WriteReg(R15 (PC), 0x200000F4)  returns 0x00 (0000ms, 0833ms total)
T0A88 001:399 JLINK_WriteReg(XPSR, 0x01000000)  returns 0x00 (0000ms, 0833ms total)
T0A88 001:399 JLINK_WriteReg(MSP, 0x20000800)  returns 0x00 (0000ms, 0833ms total)
T0A88 001:399 JLINK_WriteReg(PSP, 0x20000800)  returns 0x00 (0000ms, 0833ms total)
T0A88 001:399 JLINK_WriteReg(CFBP, 0x00000000)  returns 0x00 (0000ms, 0833ms total)
T0A88 001:399 JLINK_SetBPEx(Addr = 0x20000000, Type = 0xFFFFFFF2)  returns 0x0000000D (0000ms, 0833ms total)
T0A88 001:399 JLINK_Go() -- CPU_ReadMem(4 bytes @ 0xE0001000) (0003ms, 0836ms total)
T0A88 001:402 JLINK_IsHalted()  returns FALSE (0000ms, 0836ms total)
T0A88 001:406 JLINK_IsHalted()  returns FALSE (0000ms, 0836ms total)
T0A88 001:407 JLINK_IsHalted()  returns FALSE (0000ms, 0836ms total)
T0A88 001:408 JLINK_IsHalted()  returns FALSE (0000ms, 0836ms total)
T0A88 001:409 JLINK_IsHalted()  returns FALSE (0000ms, 0836ms total)
T0A88 001:410 JLINK_IsHalted()  returns FALSE (0000ms, 0836ms total)
T0A88 001:411 JLINK_IsHalted()  returns FALSE (0000ms, 0836ms total)
T0A88 001:412 JLINK_IsHalted()  returns FALSE (0000ms, 0836ms total)
T0A88 001:413 JLINK_IsHalted()  returns FALSE (0000ms, 0836ms total)
T0A88 001:417 JLINK_IsHalted()  returns FALSE (0000ms, 0836ms total)
T0A88 001:418 JLINK_IsHalted()  returns FALSE (0000ms, 0836ms total)
T0A88 001:419 JLINK_IsHalted()  returns FALSE (0000ms, 0836ms total)
T0A88 001:420 JLINK_IsHalted()  returns FALSE (0000ms, 0836ms total)
T0A88 001:421 JLINK_IsHalted()  returns FALSE (0000ms, 0836ms total)
T0A88 001:422 JLINK_IsHalted()  returns FALSE (0000ms, 0836ms total)
T0A88 001:423 JLINK_IsHalted()  returns FALSE (0000ms, 0836ms total)
T0A88 001:424 JLINK_IsHalted()  returns FALSE (0001ms, 0837ms total)
T0A88 001:428 JLINK_IsHalted()  returns FALSE (0000ms, 0836ms total)
T0A88 001:429 JLINK_IsHalted()  returns FALSE (0001ms, 0837ms total)
T0A88 001:431 JLINK_IsHalted()  returns FALSE (0000ms, 0836ms total)
T0A88 001:432 JLINK_IsHalted()  returns FALSE (0000ms, 0836ms total)
T0A88 001:433 JLINK_IsHalted() -- CPU_ReadMem(2 bytes @ 0x20000000)  returns TRUE (0003ms, 0839ms total)
T0A88 001:436 JLINK_ReadReg(R15 (PC))  returns 0x20000000 (0000ms, 0836ms total)
T0A88 001:436 JLINK_ClrBPEx(BPHandle = 0x0000000D)  returns 0x00 (0000ms, 0836ms total)
T0A88 001:436 JLINK_ReadReg(R0)  returns 0x00000000 (0000ms, 0836ms total)
T0A88 001:437 JLINK_WriteMem(0x20000164, 0x0400 Bytes, ...) - Data: FF F7 E8 FE 00 21 4F F4 80 20 FF F7 E3 FE 10 BD ... -- CPU_WriteMem(1024 bytes @ 0x20000164)  returns 0x400 (0006ms, 0842ms total)
T0A88 001:444 JLINK_WriteReg(R0, 0x08002400)  returns 0x00 (0000ms, 0842ms total)
T0A88 001:444 JLINK_WriteReg(R1, 0x00000400)  returns 0x00 (0000ms, 0842ms total)
T0A88 001:444 JLINK_WriteReg(R2, 0x20000164)  returns 0x00 (0000ms, 0842ms total)
T0A88 001:444 JLINK_WriteReg(R3, 0x00000000)  returns 0x00 (0000ms, 0842ms total)
T0A88 001:444 JLINK_WriteReg(R4, 0x00000000)  returns 0x00 (0000ms, 0842ms total)
T0A88 001:444 JLINK_WriteReg(R5, 0x00000000)  returns 0x00 (0000ms, 0842ms total)
